
Circuit: * test

                                     * test
                                     AC Analysis  Sun Feb 19 22:03:24  2023
--------------------------------------------------------------------------------
Index   frequency       v(n1)                           
--------------------------------------------------------------------------------
0	1.000000e+00	1.254760e+00,	1.254849e+00	
1	1.112000e+03	1.254811e+00,	1.254811e+00	
2	2.223000e+03	1.254811e+00,	1.254811e+00	
3	3.334000e+03	1.254811e+00,	1.254811e+00	
4	4.445000e+03	1.254811e+00,	1.254811e+00	
5	5.556000e+03	1.254811e+00,	1.254811e+00	
6	6.667000e+03	1.254811e+00,	1.254811e+00	
7	7.778000e+03	1.254811e+00,	1.254811e+00	
8	8.889000e+03	1.254811e+00,	1.254811e+00	
9	1.000000e+04	1.254811e+00,	1.254811e+00	
                                     * test
                                     AC Analysis  Sun Feb 19 22:03:24  2023
--------------------------------------------------------------------------------
Index   frequency       v(n2)                           
--------------------------------------------------------------------------------
0	1.000000e+00	7.633473e-01,	7.598658e-01	
1	1.112000e+03	7.616618e-01,	7.616587e-01	
2	2.223000e+03	7.616611e-01,	7.616595e-01	
3	3.334000e+03	7.616608e-01,	7.616598e-01	
4	4.445000e+03	7.616607e-01,	7.616599e-01	
5	5.556000e+03	7.616606e-01,	7.616600e-01	
6	6.667000e+03	7.616606e-01,	7.616600e-01	
7	7.778000e+03	7.616605e-01,	7.616601e-01	
8	8.889000e+03	7.616605e-01,	7.616601e-01	
9	1.000000e+04	7.616605e-01,	7.616601e-01	
                                     * test
                                     AC Analysis  Sun Feb 19 22:03:24  2023
--------------------------------------------------------------------------------
Index   frequency       v(n3)                           
--------------------------------------------------------------------------------
0	1.000000e+00	7.633473e-01,	9.598658e-01	
1	1.112000e+03	7.616618e-01,	9.616587e-01	
2	2.223000e+03	7.616611e-01,	9.616595e-01	
3	3.334000e+03	7.616608e-01,	9.616598e-01	
4	4.445000e+03	7.616607e-01,	9.616599e-01	
5	5.556000e+03	7.616606e-01,	9.616600e-01	
6	6.667000e+03	7.616606e-01,	9.616600e-01	
7	7.778000e+03	7.616605e-01,	9.616601e-01	
8	8.889000e+03	7.616605e-01,	9.616601e-01	
9	1.000000e+04	7.616605e-01,	9.616601e-01	
                                     * test
                                     AC Analysis  Sun Feb 19 22:03:24  2023
--------------------------------------------------------------------------------
Index   frequency       v(n4)                           
--------------------------------------------------------------------------------
0	1.000000e+00	7.559000e-01,	9.503532e-01	
1	1.112000e+03	7.542197e-01,	9.521373e-01	
2	2.223000e+03	7.542189e-01,	9.521381e-01	
3	3.334000e+03	7.542186e-01,	9.521384e-01	
4	4.445000e+03	7.542185e-01,	9.521385e-01	
5	5.556000e+03	7.542184e-01,	9.521386e-01	
6	6.667000e+03	7.542184e-01,	9.521386e-01	
7	7.778000e+03	7.542183e-01,	9.521387e-01	
8	8.889000e+03	7.542183e-01,	9.521387e-01	
9	1.000000e+04	7.542183e-01,	9.521387e-01	
                                     * test
                                     AC Analysis  Sun Feb 19 22:03:24  2023
--------------------------------------------------------------------------------
Index   frequency       v(n5)                           
--------------------------------------------------------------------------------
0	1.000000e+00	1.414214e+00,	1.414214e+00	
1	1.112000e+03	1.414214e+00,	1.414214e+00	
2	2.223000e+03	1.414214e+00,	1.414214e+00	
3	3.334000e+03	1.414214e+00,	1.414214e+00	
4	4.445000e+03	1.414214e+00,	1.414214e+00	
5	5.556000e+03	1.414214e+00,	1.414214e+00	
6	6.667000e+03	1.414214e+00,	1.414214e+00	
7	7.778000e+03	1.414214e+00,	1.414214e+00	
8	8.889000e+03	1.414214e+00,	1.414214e+00	
9	1.000000e+04	1.414214e+00,	1.414214e+00	
                                     * test
                                     AC Analysis  Sun Feb 19 22:03:24  2023
--------------------------------------------------------------------------------
Index   frequency       v(n6)                           
--------------------------------------------------------------------------------
0	1.000000e+00	1.372830e+00,	1.373923e+00	
1	1.112000e+03	1.373428e+00,	1.373336e+00	
2	2.223000e+03	1.373429e+00,	1.373335e+00	
3	3.334000e+03	1.373429e+00,	1.373335e+00	
4	4.445000e+03	1.373429e+00,	1.373335e+00	
5	5.556000e+03	1.373429e+00,	1.373335e+00	
6	6.667000e+03	1.373429e+00,	1.373335e+00	
7	7.778000e+03	1.373429e+00,	1.373335e+00	
8	8.889000e+03	1.373429e+00,	1.373335e+00	
9	1.000000e+04	1.373429e+00,	1.373335e+00	
                                     * test
                                     AC Analysis  Sun Feb 19 22:03:24  2023
--------------------------------------------------------------------------------
Index   frequency       v(n7)                           
--------------------------------------------------------------------------------
0	1.000000e+00	1.372830e+00,	1.373923e+00	
1	1.112000e+03	1.373428e+00,	1.373336e+00	
2	2.223000e+03	1.373429e+00,	1.373335e+00	
3	3.334000e+03	1.373429e+00,	1.373335e+00	
4	4.445000e+03	1.373429e+00,	1.373335e+00	
5	5.556000e+03	1.373429e+00,	1.373335e+00	
6	6.667000e+03	1.373429e+00,	1.373335e+00	
7	7.778000e+03	1.373429e+00,	1.373335e+00	
8	8.889000e+03	1.373429e+00,	1.373335e+00	
9	1.000000e+04	1.373429e+00,	1.373335e+00	
                                     * test
                                     AC Analysis  Sun Feb 19 22:03:24  2023
--------------------------------------------------------------------------------
Index   frequency       v(n8)                           
--------------------------------------------------------------------------------
0	1.000000e+00	1.565018e+00,	1.043534e+00	
1	1.112000e+03	-9.91106e-01,	-1.49679e-02	
2	2.223000e+03	-9.95574e-01,	-7.50122e-03	
3	3.334000e+03	-9.97054e-01,	-5.00463e-03	
4	4.445000e+03	-9.97793e-01,	-3.75490e-03	
5	5.556000e+03	-9.98235e-01,	-3.00461e-03	
6	6.667000e+03	-9.98530e-01,	-2.50422e-03	
7	7.778000e+03	-9.98740e-01,	-2.14671e-03	
8	8.889000e+03	-9.98898e-01,	-1.87852e-03	
9	1.000000e+04	-9.99020e-01,	-1.66990e-03	
